Sample in Buffer,Sample in Window,TRIGGER,high_add[35:0],dram_debug[3:0],response_received[64:0],flash_debug[3:0],init,cdebug[3:0],ddebug[3:0],tgen_debug[3:0],low_add[35:0],rdebug[4:0]
0,0,1,040000018,4,0,f,1,5,5,f,040000018,08
1,1,0,040000020,4,0,f,1,5,5,f,040000020,08
2,2,0,040000028,4,0,f,1,5,5,f,040000028,08
3,3,0,040000030,4,0,f,1,5,5,f,040000030,08
4,4,0,040000038,4,0,f,1,5,5,f,040000038,08
5,5,0,040000040,4,0,f,1,5,5,f,040000040,08
6,6,0,040000048,4,0,f,1,4,5,f,040000048,08
7,7,0,040000008,4,0,f,1,4,5,f,040000008,08
8,8,0,040000010,4,0,f,1,5,5,f,040000010,08
9,9,0,040000018,4,1,f,1,5,5,f,040000018,08
10,10,0,040000020,4,2,f,1,5,5,f,040000020,08
11,11,0,040000028,4,3,f,1,5,5,f,040000028,08
12,12,0,040000030,4,4,f,1,5,5,f,040000030,08
13,13,0,040000038,4,5,f,1,5,5,f,040000038,08
14,14,0,040000040,4,6,f,1,5,5,f,040000040,08
15,15,0,040000048,4,7,f,1,5,5,f,040000048,08
16,16,0,040000008,4,8,f,1,5,5,f,040000008,08
17,17,0,040000010,4,9,f,1,5,5,f,040000010,08
18,18,0,040000018,4,0,f,1,5,5,f,040000018,08
19,19,0,040000020,4,0,f,1,5,5,f,040000020,08
20,20,0,040000028,4,0,f,1,5,5,f,040000028,08
21,21,0,040000030,4,0,f,1,5,5,f,040000030,08
22,22,0,040000038,4,0,f,1,5,5,f,040000038,08
23,23,0,040000040,4,0,f,1,5,5,f,040000040,08
24,24,0,040000048,4,0,f,1,5,5,f,040000048,08
25,25,0,040000008,4,0,f,1,5,5,f,040000008,08
26,26,0,040000010,4,0,f,1,5,5,f,040000010,08
27,27,0,040000018,4,1,f,1,5,5,f,040000018,08
28,28,0,040000020,4,2,f,1,5,5,f,040000020,08
29,29,0,040000028,4,3,f,1,5,5,f,040000028,08
30,30,0,040000030,4,4,f,1,5,5,f,040000030,08
31,31,0,040000038,4,5,f,1,5,5,f,040000038,08
32,32,0,040000040,4,6,f,1,5,5,f,040000040,08
33,33,0,040000048,4,7,f,1,5,5,f,040000048,08
34,34,0,040000008,4,8,f,1,5,5,f,040000008,08
35,35,0,040000010,4,9,f,1,5,5,f,040000010,08
36,36,0,040000018,4,0,f,1,5,5,f,040000018,08
37,37,0,040000020,4,0,f,1,5,5,f,040000020,08
38,38,0,040000028,4,0,f,1,5,5,f,040000028,08
39,39,0,040000030,4,0,f,1,5,5,f,040000030,08
40,40,0,040000038,4,0,f,1,5,5,f,040000038,08
41,41,0,040000040,4,0,f,1,5,5,f,040000040,08
42,42,0,040000048,4,0,f,1,5,5,f,040000048,08
43,43,0,040000008,4,0,f,1,5,5,f,040000008,08
44,44,0,040000010,4,0,f,1,5,5,f,040000010,08
45,45,0,040000018,4,1,f,1,5,5,f,040000018,08
46,46,0,040000020,4,2,f,1,5,5,f,040000020,08
47,47,0,040000028,4,3,f,1,5,5,f,040000028,08
48,48,0,040000030,4,4,f,1,5,5,f,040000030,08
49,49,0,040000038,4,5,f,1,5,5,f,040000038,08
50,50,0,040000040,4,6,f,1,5,5,f,040000040,08
51,51,0,040000048,4,7,f,1,5,5,f,040000048,08
52,52,0,040000008,4,8,f,1,5,5,f,040000008,08
53,53,0,040000010,4,9,f,1,5,5,f,040000010,08
54,54,0,040000018,4,0,f,1,5,5,f,040000018,08
55,55,0,040000020,4,0,f,1,5,5,f,040000020,08
56,56,0,040000028,4,0,f,1,5,5,f,040000028,08
57,57,0,040000030,4,0,f,1,5,5,f,040000030,08
58,58,0,040000038,4,0,f,1,5,5,f,040000038,08
59,59,0,040000040,4,0,f,1,5,5,f,040000040,08
60,60,0,040000048,4,0,f,1,5,5,f,040000048,08
61,61,0,040000008,4,0,f,1,5,5,f,040000008,08
62,62,0,040000010,4,0,f,1,5,5,f,040000010,08
63,63,0,040000018,4,1,f,1,5,5,f,040000018,08
64,64,0,040000020,4,2,f,1,5,5,f,040000020,08
65,65,0,040000028,4,3,f,1,5,5,f,040000028,08
66,66,0,040000030,4,4,f,1,5,5,f,040000030,08
67,67,0,040000038,4,5,f,1,5,5,f,040000038,08
68,68,0,040000040,4,6,f,1,5,5,f,040000040,08
69,69,0,040000048,4,7,f,1,5,5,f,040000048,08
70,70,0,040000008,4,8,f,1,5,5,f,040000008,08
71,71,0,040000010,4,9,f,1,5,5,f,040000010,08
72,72,0,040000018,4,0,f,1,5,5,f,040000018,08
73,73,0,040000020,4,0,f,1,5,5,f,040000020,08
74,74,0,040000028,4,0,f,1,5,5,f,040000028,08
75,75,0,040000030,4,0,f,1,5,5,f,040000030,08
76,76,0,040000038,4,0,f,1,5,5,f,040000038,08
77,77,0,040000040,4,0,f,1,5,5,f,040000040,08
78,78,0,040000048,4,0,f,1,5,5,f,040000048,08
79,79,0,040000008,4,0,f,1,5,5,f,040000008,08
80,80,0,040000010,4,0,f,1,5,5,f,040000010,08
81,81,0,040000018,4,1,f,1,5,5,f,040000018,08
82,82,0,040000020,4,2,f,1,5,5,f,040000020,08
83,83,0,040000028,4,3,f,1,5,5,f,040000028,08
84,84,0,040000030,4,4,f,1,5,5,f,040000030,08
85,85,0,040000038,4,5,f,1,5,5,f,040000038,08
86,86,0,040000040,4,6,f,1,4,5,f,040000040,08
87,87,0,040000048,4,7,f,1,4,5,f,040000048,08
88,88,0,040000008,4,8,f,1,5,5,f,040000008,08
89,89,0,040000010,4,9,f,1,5,5,f,040000010,08
90,90,0,040000018,4,0,f,1,5,5,f,040000018,08
91,91,0,040000020,4,0,f,1,5,5,f,040000020,08
92,92,0,040000028,4,0,f,1,5,5,f,040000028,08
93,93,0,040000030,4,0,f,1,5,5,f,040000030,08
94,94,0,040000038,4,0,f,1,5,5,f,040000038,08
95,95,0,040000040,4,0,f,1,5,5,f,040000040,08
96,96,0,040000048,4,0,f,1,5,5,f,040000048,08
97,97,0,040000008,4,0,f,1,5,5,f,040000008,08
98,98,0,040000010,4,0,f,1,5,5,f,040000010,08
99,99,0,040000018,4,1,f,1,5,5,f,040000018,08
100,100,0,040000020,4,2,f,1,5,5,f,040000020,08
101,101,0,040000028,4,3,f,1,5,5,f,040000028,08
102,102,0,040000030,4,4,f,1,5,5,f,040000030,08
103,103,0,040000038,4,5,f,1,5,5,f,040000038,08
104,104,0,040000040,4,6,f,1,5,5,f,040000040,08
105,105,0,040000048,4,7,f,1,5,5,f,040000048,08
106,106,0,040000008,4,8,f,1,5,5,f,040000008,08
107,107,0,040000010,4,9,f,1,5,5,f,040000010,08
108,108,0,040000018,4,0,f,1,5,5,f,040000018,08
109,109,0,040000020,4,0,f,1,5,5,f,040000020,08
110,110,0,040000028,4,0,f,1,5,5,f,040000028,08
111,111,0,040000030,4,0,f,1,5,5,f,040000030,08
112,112,0,040000038,4,0,f,1,5,5,f,040000038,08
113,113,0,040000040,4,0,f,1,5,5,f,040000040,08
114,114,0,040000048,4,0,f,1,5,5,f,040000048,08
115,115,0,040000008,4,0,f,1,5,5,f,040000008,08
116,116,0,040000010,4,0,f,1,5,5,f,040000010,08
117,117,0,040000018,4,1,f,1,5,5,f,040000018,08
118,118,0,040000020,4,2,f,1,5,5,f,040000020,08
119,119,0,040000028,4,3,f,1,5,5,f,040000028,08
120,120,0,040000030,4,4,f,1,5,5,f,040000030,08
121,121,0,040000038,4,5,f,1,5,5,f,040000038,08
122,122,0,040000040,4,6,f,1,5,5,f,040000040,08
123,123,0,040000048,4,7,f,1,5,5,f,040000048,08
124,124,0,040000008,4,8,f,1,5,5,f,040000008,08
125,125,0,040000010,4,9,f,1,5,5,f,040000010,08
126,126,0,040000018,4,0,f,1,5,5,f,040000018,08
127,127,0,040000020,4,0,f,1,5,5,f,040000020,08
128,128,0,040000028,4,0,f,1,5,5,f,040000028,08
129,129,0,040000030,4,0,f,1,5,5,f,040000030,08
130,130,0,040000038,4,0,f,1,5,5,f,040000038,08
131,131,0,040000040,4,0,f,1,5,5,f,040000040,08
132,132,0,040000048,4,0,f,1,5,5,f,040000048,08
133,133,0,040000008,4,0,f,1,5,5,f,040000008,08
134,134,0,040000010,4,0,f,1,5,5,f,040000010,08
135,135,0,040000018,4,1,f,1,5,5,f,040000018,08
136,136,0,040000020,4,2,f,1,5,5,f,040000020,08
137,137,0,040000028,4,3,f,1,5,5,f,040000028,08
138,138,0,040000030,4,4,f,1,5,5,f,040000030,08
139,139,0,040000038,4,5,f,1,5,5,f,040000038,08
140,140,0,040000040,4,6,f,1,5,5,f,040000040,08
141,141,0,040000048,4,7,f,1,5,5,f,040000048,08
142,142,0,040000008,4,8,f,1,5,5,f,040000008,08
143,143,0,040000010,4,9,f,1,5,5,f,040000010,08
144,144,0,040000018,4,0,f,1,5,5,f,040000018,08
145,145,0,040000020,4,0,f,1,5,5,f,040000020,08
146,146,0,040000028,4,0,f,1,5,5,f,040000028,08
147,147,0,040000030,4,0,f,1,5,5,f,040000030,08
148,148,0,040000038,4,0,f,1,5,5,f,040000038,08
149,149,0,040000040,4,0,f,1,5,5,f,040000040,08
150,150,0,040000048,4,0,f,1,5,5,f,040000048,08
151,151,0,040000008,4,0,f,1,5,5,f,040000008,08
152,152,0,040000010,4,0,f,1,5,5,f,040000010,08
153,153,0,040000018,4,1,f,1,5,5,f,040000018,08
154,154,0,040000020,4,2,f,1,5,5,f,040000020,08
155,155,0,040000028,4,3,f,1,5,5,f,040000028,08
156,156,0,040000030,4,4,f,1,5,5,f,040000030,08
157,157,0,040000038,4,5,f,1,5,5,f,040000038,08
158,158,0,040000040,4,6,f,1,5,5,f,040000040,08
159,159,0,040000048,4,7,f,1,5,5,f,040000048,08
160,160,0,040000008,4,8,f,1,5,5,f,040000008,08
161,161,0,040000010,4,9,f,1,5,5,f,040000010,08
162,162,0,040000018,4,0,f,1,5,5,f,040000018,08
163,163,0,040000020,4,0,f,1,5,5,f,040000020,08
164,164,0,040000028,4,0,f,1,5,5,f,040000028,08
165,165,0,040000030,4,0,f,1,5,5,f,040000030,08
166,166,0,040000038,4,0,f,1,4,5,f,040000038,08
167,167,0,040000040,4,0,f,1,4,5,f,040000040,08
168,168,0,040000048,4,0,f,1,5,5,f,040000048,08
169,169,0,040000008,4,0,f,1,5,5,f,040000008,08
170,170,0,040000010,4,0,f,1,5,5,f,040000010,08
171,171,0,040000018,4,1,f,1,5,5,f,040000018,08
172,172,0,040000020,4,2,f,1,5,5,f,040000020,08
173,173,0,040000028,4,3,f,1,5,5,f,040000028,08
174,174,0,040000030,4,4,f,1,5,5,f,040000030,08
175,175,0,040000038,4,5,f,1,5,5,f,040000038,08
176,176,0,040000040,4,6,f,1,5,5,f,040000040,08
177,177,0,040000048,4,7,f,1,5,5,f,040000048,08
178,178,0,040000008,4,8,f,1,5,5,f,040000008,08
179,179,0,040000010,4,9,f,1,5,5,f,040000010,08
180,180,0,040000018,4,0,f,1,5,5,f,040000018,08
181,181,0,040000020,4,0,f,1,5,5,f,040000020,08
182,182,0,040000028,4,0,f,1,5,5,f,040000028,08
183,183,0,040000030,4,0,f,1,5,5,f,040000030,08
184,184,0,040000038,4,0,f,1,5,5,f,040000038,08
185,185,0,040000040,4,0,f,1,5,5,f,040000040,08
186,186,0,040000048,4,0,f,1,5,5,f,040000048,08
187,187,0,040000008,4,0,f,1,5,5,f,040000008,08
188,188,0,040000010,4,0,f,1,5,5,f,040000010,08
189,189,0,040000018,4,1,f,1,5,5,f,040000018,08
190,190,0,040000020,4,2,f,1,5,5,f,040000020,08
191,191,0,040000028,4,3,f,1,5,5,f,040000028,08
192,192,0,040000030,4,4,f,1,5,5,f,040000030,08
193,193,0,040000038,4,5,f,1,5,5,f,040000038,08
194,194,0,040000040,4,6,f,1,5,5,f,040000040,08
195,195,0,040000048,4,7,f,1,5,5,f,040000048,08
196,196,0,040000008,4,8,f,1,5,5,f,040000008,08
197,197,0,040000010,4,9,f,1,5,5,f,040000010,08
198,198,0,040000018,4,0,f,1,5,5,f,040000018,08
199,199,0,040000020,4,0,f,1,5,5,f,040000020,08
200,200,0,040000028,4,0,f,1,5,5,f,040000028,08
201,201,0,040000030,4,0,f,1,5,5,f,040000030,08
202,202,0,040000038,4,0,f,1,5,5,f,040000038,08
203,203,0,040000040,4,0,f,1,5,5,f,040000040,08
204,204,0,040000048,4,0,f,1,5,5,f,040000048,08
205,205,0,040000008,4,0,f,1,5,5,f,040000008,08
206,206,0,040000010,4,0,f,1,5,5,f,040000010,08
207,207,0,040000018,4,1,f,1,5,5,f,040000018,08
208,208,0,040000020,4,2,f,1,5,5,f,040000020,08
209,209,0,040000028,4,3,f,1,5,5,f,040000028,08
210,210,0,040000030,4,4,f,1,5,5,f,040000030,08
211,211,0,040000038,4,5,f,1,5,5,f,040000038,08
212,212,0,040000040,4,6,f,1,5,5,f,040000040,08
213,213,0,040000048,4,7,f,1,5,5,f,040000048,08
214,214,0,040000008,4,8,f,1,5,5,f,040000008,08
215,215,0,040000010,4,9,f,1,5,5,f,040000010,08
216,216,0,040000018,4,0,f,1,5,5,f,040000018,08
217,217,0,040000020,4,0,f,1,5,5,f,040000020,08
218,218,0,040000028,4,0,f,1,5,5,f,040000028,08
219,219,0,040000030,4,0,f,1,5,5,f,040000030,08
220,220,0,040000038,4,0,f,1,5,5,f,040000038,08
221,221,0,040000040,4,0,f,1,5,5,f,040000040,08
222,222,0,040000048,4,0,f,1,5,5,f,040000048,08
223,223,0,040000008,4,0,f,1,5,5,f,040000008,08
224,224,0,040000010,4,0,f,1,5,5,f,040000010,08
225,225,0,040000018,4,1,f,1,5,5,f,040000018,08
226,226,0,040000020,4,2,f,1,5,5,f,040000020,08
227,227,0,040000028,4,3,f,1,5,5,f,040000028,08
228,228,0,040000030,4,4,f,1,5,5,f,040000030,08
229,229,0,040000038,4,5,f,1,5,5,f,040000038,08
230,230,0,040000040,4,6,f,1,5,5,f,040000040,08
231,231,0,040000048,4,7,f,1,5,5,f,040000048,08
232,232,0,040000008,4,8,f,1,5,5,f,040000008,08
233,233,0,040000010,4,9,f,1,5,5,f,040000010,08
234,234,0,040000018,4,0,f,1,5,5,f,040000018,08
235,235,0,040000020,4,0,f,1,5,5,f,040000020,08
236,236,0,040000028,4,0,f,1,5,5,f,040000028,08
237,237,0,040000030,4,0,f,1,5,5,f,040000030,08
238,238,0,040000038,4,0,f,1,5,5,f,040000038,08
239,239,0,040000040,4,0,f,1,5,5,f,040000040,08
240,240,0,040000048,4,0,f,1,5,5,f,040000048,08
241,241,0,040000008,4,0,f,1,5,5,f,040000008,08
242,242,0,040000010,4,0,f,1,5,5,f,040000010,08
243,243,0,040000018,4,1,f,1,5,5,f,040000018,08
244,244,0,040000020,4,2,f,1,5,5,f,040000020,08
245,245,0,040000028,4,3,f,1,5,5,f,040000028,08
246,246,0,040000030,4,4,f,1,4,5,f,040000030,08
247,247,0,040000038,4,5,f,1,4,5,f,040000038,08
248,248,0,040000040,4,6,f,1,5,5,f,040000040,08
249,249,0,040000048,4,7,f,1,5,5,f,040000048,08
250,250,0,040000008,4,8,f,1,5,5,f,040000008,08
251,251,0,040000010,4,9,f,1,5,5,f,040000010,08
252,252,0,040000018,4,0,f,1,5,5,f,040000018,08
253,253,0,040000020,4,0,f,1,5,5,f,040000020,08
254,254,0,040000028,4,0,f,1,5,5,f,040000028,08
255,255,0,040000030,4,0,f,1,5,5,f,040000030,08
256,256,0,040000038,4,0,f,1,5,5,f,040000038,08
257,257,0,040000040,4,0,f,1,5,5,f,040000040,08
258,258,0,040000048,4,0,f,1,5,5,f,040000048,08
259,259,0,040000008,4,0,f,1,5,5,f,040000008,08
260,260,0,040000010,4,0,f,1,5,5,f,040000010,08
261,261,0,040000018,4,1,f,1,5,5,f,040000018,08
262,262,0,040000020,4,2,f,1,5,5,f,040000020,08
263,263,0,040000028,4,3,f,1,5,5,f,040000028,08
264,264,0,040000030,4,4,f,1,5,5,f,040000030,08
265,265,0,040000038,4,5,f,1,5,5,f,040000038,08
266,266,0,040000040,4,6,f,1,5,5,f,040000040,08
267,267,0,040000048,4,7,f,1,5,5,f,040000048,08
268,268,0,040000008,4,8,f,1,5,5,f,040000008,08
269,269,0,040000010,4,9,f,1,5,5,f,040000010,08
270,270,0,040000018,4,0,f,1,5,5,f,040000018,08
271,271,0,040000020,4,0,f,1,5,5,f,040000020,08
272,272,0,040000028,4,0,f,1,5,5,f,040000028,08
273,273,0,040000030,4,0,f,1,5,5,f,040000030,08
274,274,0,040000038,4,0,f,1,5,5,f,040000038,08
275,275,0,040000040,4,0,f,1,5,5,f,040000040,08
276,276,0,040000048,4,0,f,1,5,5,f,040000048,08
277,277,0,040000008,4,0,f,1,5,5,f,040000008,08
278,278,0,040000010,4,0,f,1,5,5,f,040000010,08
279,279,0,040000018,4,1,f,1,5,5,f,040000018,08
280,280,0,040000020,4,2,f,1,5,5,f,040000020,08
281,281,0,040000028,4,3,f,1,5,5,f,040000028,08
282,282,0,040000030,4,4,f,1,5,5,f,040000030,08
283,283,0,040000038,4,5,f,1,5,5,f,040000038,08
284,284,0,040000040,4,6,f,1,5,5,f,040000040,08
285,285,0,040000048,4,7,f,1,5,5,f,040000048,08
286,286,0,040000008,4,8,f,1,5,5,f,040000008,08
287,287,0,040000010,4,9,f,1,5,5,f,040000010,08
288,288,0,040000018,4,0,f,1,5,5,f,040000018,08
289,289,0,040000020,4,0,f,1,5,5,f,040000020,08
290,290,0,040000028,4,0,f,1,5,5,f,040000028,08
291,291,0,040000030,4,0,f,1,5,5,f,040000030,08
292,292,0,040000038,4,0,f,1,5,5,f,040000038,08
293,293,0,040000040,4,0,f,1,5,5,f,040000040,08
294,294,0,040000048,4,0,f,1,5,5,f,040000048,08
295,295,0,040000008,4,0,f,1,5,5,f,040000008,08
296,296,0,040000010,4,0,f,1,5,5,f,040000010,08
297,297,0,040000018,4,1,f,1,5,5,f,040000018,08
298,298,0,040000020,4,2,f,1,5,5,f,040000020,08
299,299,0,040000028,4,3,f,1,5,5,f,040000028,08
300,300,0,040000030,4,4,f,1,5,5,f,040000030,08
301,301,0,040000038,4,5,f,1,5,5,f,040000038,08
302,302,0,040000040,4,6,f,1,5,5,f,040000040,08
303,303,0,040000048,4,7,f,1,5,5,f,040000048,08
304,304,0,040000008,4,8,f,1,5,5,f,040000008,08
305,305,0,040000010,4,9,f,1,5,5,f,040000010,08
306,306,0,040000018,4,0,f,1,5,5,f,040000018,08
307,307,0,040000020,4,0,f,1,5,5,f,040000020,08
308,308,0,040000028,4,0,f,1,5,5,f,040000028,08
309,309,0,040000030,4,0,f,1,5,5,f,040000030,08
310,310,0,040000038,4,0,f,1,5,5,f,040000038,08
311,311,0,040000040,4,0,f,1,5,5,f,040000040,08
312,312,0,040000048,4,0,f,1,5,5,f,040000048,08
313,313,0,040000008,4,0,f,1,5,5,f,040000008,08
314,314,0,040000010,4,0,f,1,5,5,f,040000010,08
315,315,0,040000018,4,1,f,1,5,5,f,040000018,08
316,316,0,040000020,4,2,f,1,5,5,f,040000020,08
317,317,0,040000028,4,3,f,1,5,5,f,040000028,08
318,318,0,040000030,4,4,f,1,5,5,f,040000030,08
319,319,0,040000038,4,5,f,1,5,5,f,040000038,08
320,320,0,040000040,4,6,f,1,5,5,f,040000040,08
321,321,0,040000048,4,7,f,1,5,5,f,040000048,08
322,322,0,040000008,4,8,f,1,5,5,f,040000008,08
323,323,0,040000010,4,9,f,1,5,5,f,040000010,08
324,324,0,040000018,4,0,f,1,5,5,f,040000018,08
325,325,0,040000020,4,0,f,1,5,5,f,040000020,08
326,326,0,040000028,4,0,f,1,4,5,f,040000028,08
327,327,0,040000030,4,0,f,1,4,5,f,040000030,08
328,328,0,040000038,4,0,f,1,5,5,f,040000038,08
329,329,0,040000040,4,0,f,1,5,5,f,040000040,08
330,330,0,040000048,4,0,f,1,5,5,f,040000048,08
331,331,0,040000008,4,0,f,1,5,5,f,040000008,08
332,332,0,040000010,4,0,f,1,5,5,f,040000010,08
333,333,0,040000018,4,1,f,1,5,5,f,040000018,08
334,334,0,040000020,4,2,f,1,5,5,f,040000020,08
335,335,0,040000028,4,3,f,1,5,5,f,040000028,08
336,336,0,040000030,4,4,f,1,5,5,f,040000030,08
337,337,0,040000038,4,5,f,1,5,5,f,040000038,08
338,338,0,040000040,4,6,f,1,5,5,f,040000040,08
339,339,0,040000048,4,7,f,1,5,5,f,040000048,08
340,340,0,040000008,4,8,f,1,5,5,f,040000008,08
341,341,0,040000010,4,9,f,1,5,5,f,040000010,08
342,342,0,040000018,4,0,f,1,5,5,f,040000018,08
343,343,0,040000020,4,0,f,1,5,5,f,040000020,08
344,344,0,040000028,4,0,f,1,5,5,f,040000028,08
345,345,0,040000030,4,0,f,1,5,5,f,040000030,08
346,346,0,040000038,4,0,f,1,5,5,f,040000038,08
347,347,0,040000040,4,0,f,1,5,5,f,040000040,08
348,348,0,040000048,4,0,f,1,5,5,f,040000048,08
349,349,0,040000008,4,0,f,1,5,5,f,040000008,08
350,350,0,040000010,4,0,f,1,5,5,f,040000010,08
351,351,0,040000018,4,1,f,1,5,5,f,040000018,08
352,352,0,040000020,4,2,f,1,5,5,f,040000020,08
353,353,0,040000028,4,3,f,1,5,5,f,040000028,08
354,354,0,040000030,4,4,f,1,5,5,f,040000030,08
355,355,0,040000038,4,5,f,1,5,5,f,040000038,08
356,356,0,040000040,4,6,f,1,5,5,f,040000040,08
357,357,0,040000048,4,7,f,1,5,5,f,040000048,08
358,358,0,040000008,4,8,f,1,5,5,f,040000008,08
359,359,0,040000010,4,9,f,1,5,5,f,040000010,08
360,360,0,040000018,4,0,f,1,5,5,f,040000018,08
361,361,0,040000020,4,0,f,1,5,5,f,040000020,08
362,362,0,040000028,4,0,f,1,5,5,f,040000028,08
363,363,0,040000030,4,0,f,1,5,5,f,040000030,08
364,364,0,040000038,4,0,f,1,5,5,f,040000038,08
365,365,0,040000040,4,0,f,1,5,5,f,040000040,08
366,366,0,040000048,4,0,f,1,5,5,f,040000048,08
367,367,0,040000008,4,0,f,1,5,5,f,040000008,08
368,368,0,040000010,4,0,f,1,5,5,f,040000010,08
369,369,0,040000018,4,1,f,1,5,5,f,040000018,08
370,370,0,040000020,4,2,f,1,5,5,f,040000020,08
371,371,0,040000028,4,3,f,1,5,5,f,040000028,08
372,372,0,040000030,4,4,f,1,5,5,f,040000030,08
373,373,0,040000038,4,5,f,1,5,5,f,040000038,08
374,374,0,040000040,4,6,f,1,5,5,f,040000040,08
375,375,0,040000048,4,7,f,1,5,5,f,040000048,08
376,376,0,040000008,4,8,f,1,5,5,f,040000008,08
377,377,0,040000010,4,9,f,1,5,5,f,040000010,08
378,378,0,040000018,4,0,f,1,5,5,f,040000018,08
379,379,0,040000020,4,0,f,1,5,5,f,040000020,08
380,380,0,040000028,4,0,f,1,5,5,f,040000028,08
381,381,0,040000030,4,0,f,1,5,5,f,040000030,08
382,382,0,040000038,4,0,f,1,5,5,f,040000038,08
383,383,0,040000040,4,0,f,1,5,5,f,040000040,08
384,384,0,040000048,4,0,f,1,5,5,f,040000048,08
385,385,0,040000008,4,0,f,1,5,5,f,040000008,08
386,386,0,040000010,4,0,f,1,5,5,f,040000010,08
387,387,0,040000018,4,1,f,1,5,5,f,040000018,08
388,388,0,040000020,4,2,f,1,5,5,f,040000020,08
389,389,0,040000028,4,3,f,1,5,5,f,040000028,08
390,390,0,040000030,4,4,f,1,5,5,f,040000030,08
391,391,0,040000038,4,5,f,1,5,5,f,040000038,08
392,392,0,040000040,4,6,f,1,5,5,f,040000040,08
393,393,0,040000048,4,7,f,1,5,5,f,040000048,08
394,394,0,040000008,4,8,f,1,5,5,f,040000008,08
395,395,0,040000010,4,9,f,1,5,5,f,040000010,08
396,396,0,040000018,4,0,f,1,5,5,f,040000018,08
397,397,0,040000020,4,0,f,1,5,5,f,040000020,08
398,398,0,040000028,4,0,f,1,5,5,f,040000028,08
399,399,0,040000030,4,0,f,1,5,5,f,040000030,08
400,400,0,040000038,4,0,f,1,5,5,f,040000038,08
401,401,0,040000040,4,0,f,1,5,5,f,040000040,08
402,402,0,040000048,4,0,f,1,5,5,f,040000048,08
403,403,0,040000008,4,0,f,1,5,5,f,040000008,08
404,404,0,040000010,4,0,f,1,5,5,f,040000010,08
405,405,0,040000018,4,1,f,1,5,5,f,040000018,08
406,406,0,040000020,4,2,f,1,5,5,f,040000020,08
407,407,0,040000028,4,3,f,1,5,5,f,040000028,08
408,408,0,040000030,4,4,f,1,5,5,f,040000030,08
409,409,0,040000038,4,5,f,1,5,5,f,040000038,08
410,410,0,040000040,4,6,f,1,5,5,f,040000040,08
411,411,0,040000048,4,7,f,1,5,5,f,040000048,08
412,412,0,040000008,4,8,f,1,5,5,f,040000008,08
413,413,0,040000010,4,9,f,1,5,5,f,040000010,08
414,414,0,040000018,4,0,f,1,5,5,f,040000018,08
415,415,0,040000020,4,0,f,1,5,5,f,040000020,08
416,416,0,040000028,4,0,f,1,5,5,f,040000028,08
417,417,0,040000030,4,0,f,1,5,5,f,040000030,08
418,418,0,040000038,4,0,f,1,5,5,f,040000038,08
419,419,0,040000040,4,0,f,1,5,5,f,040000040,08
420,420,0,040000048,4,0,f,1,5,5,f,040000048,08
421,421,0,040000008,4,0,f,1,5,5,f,040000008,08
422,422,0,040000010,4,0,f,1,4,5,f,040000010,08
423,423,0,040000018,4,1,f,1,4,5,f,040000018,08
424,424,0,040000020,4,2,f,1,5,5,f,040000020,08
425,425,0,040000028,4,3,f,1,5,5,f,040000028,08
